write to 0x21 ack data: 0x12 0x80 
write to 0x21 ack data: 0x3A 0x04 
write to 0x21 ack data: 0x12 0x00 
read to 0x10 ack data: 0x09
0x73
read to 0x10 ack data: 0x37
0x4F
write to 0x21 ack data: 0xB0 0x84 
write to 0x21 ack data: 0x70 0x3A 
write to 0x21 ack data: 0x71 0x35 
write to 0x21 ack data: 0x72 0x11 
write to 0x21 ack data: 0x73 0xF0 
write to 0x21 ack data: 0x7A 0x20 
write to 0x21 ack data: 0x7B 0x10 
write to 0x21 ack data: 0x7C 0x1E 
write to 0x21 ack data: 0x7D 0x35 
write to 0x21 ack data: 0x7E 0x5A 
write to 0x21 ack data: 0x7F 0x69 
write to 0x21 ack data: 0x80 0x76 
write to 0x21 ack data: 0x81 0x80 
write to 0x21 ack data: 0x82 0x88 
write to 0x21 ack data: 0x83 0x8F 
write to 0x21 ack data: 0x84 0x96 
write to 0x21 ack data: 0x85 0xA3 
write to 0x21 ack data: 0x86 0xAF 
write to 0x21 ack data: 0x87 0xC4 
write to 0x21 ack data: 0x88 0xD7 
write to 0x21 ack data: 0x89 0xE8 
write to 0x21 ack data: 0x00 0x00 
write to 0x21 ack data: 0x10 0x00 
read to 0x10 ack data: 0x06
0x20 
write to 0x21 ack data: 0x14 0x18 
write to 0x21 ack data: 0xA5 0x05 
write to 0x21 ack data: 0xAB 0x07 
write to 0x21 ack data: 0x24 0x95 
write to 0x21 ack data: 0x25 0x33 
write to 0x21 ack data: 0x26 0xE3 
read to 0x10 ack data: 0x4F
0x3C 
write to 0x21 ack data: 0xA0 0x68 
write to 0x21 ack data: 0xA1 0x03 
write to 0x21 ack data: 0xA6 0xD8 
write to 0x21 ack data: 0xA7 0xD8 
write to 0x21 ack data: 0xA8 0xF0 
write to 0x21 ack data: 0xA9 0x90 
write to 0x21 ack data: 0xAA 0x94 
write to 0x21 ack data: 0x12 0x11 
write to 0x21 ack data: 0x0C 0x04 
write to 0x21 ack data: 0x3E 0x19 
write to 0x21 ack data: 0x70 0x3A 
write to 0x21 ack data: 0x71 0x35 
write to 0x21 ack data: 0x72 0x11 
write to 0x21 ack data: 0x73 0xF1 
write to 0x21 ack data: 0xA2 0x02 
write to 0x21 ack data: 0x17 0x15 
write to 0x21 ack data: 0x18 0x03 
write to 0x21 ack data: 0x32 0x00 
write to 0x21 ack data: 0x19 0x03 
write to 0x21 ack data: 0x1A 0x7B 
write to 0x21 ack data: 0x03 0x00 
write to 0x21 ack data: 0x12 
read to 0x21 ack data: 0x11
write to 0x21 ack data: 0x40 
read to 0x21 ack data: 0xC0
read to 0x10 ack data: 0x09 0x0A 
write to 0x21 ack data: 0x40 0x10 
write to 0x21 ack data: 0x12 0x11 
write to 0x21 ack data: 0x0C 0x04 
write to 0x21 ack data: 0x3E 0x19 
write to 0x21 ack data: 0x70 0x3A 
write to 0x21 ack data: 0x71 0x35 
write to 0x21 ack data: 0x72 0x11 
write to 0x21 ack data: 0x73 0xF1 
write to 0x21 ack data: 0xA2 0x02 
write to 0x21 ack data: 0x17 0x15 
write to 0x21 ack data: 0x18 0x03 
write to 0x21 ack data: 0x32 0x00 
write to 0x21 ack data: 0x19 0x03 
write to 0x21 ack data: 0x1A 0x7B 
write to 0x21 ack data: 0x03 0x00 
write to 0x21 ack data: 0x12 
read to 0x21 ack data: 0x11
write to 0x21 ack data: 0x40 
read to 0x21 ack data: 0x10
write to 0x21 ack data: 0x12 0x14 
write to 0x21 ack data: 0x40 0x10 
write to 0x21 ack data: 0x13 
read to 0x21 ack data: 0xE7
write to 0x21 ack data: 0x13 0xE7 
write to 0x21 ack data: 0x55 0x87 
write to 0x21 ack data: 0x13 
read to 0x21 ack data: 0xE7
write to 0x21 ack data: 0x13 0xE7 